<Qucs Dataset 0.0.15>
<indep dtime 10>
  +0.00000000000e+00
  +1.00000000000e-09
  +1.40000000000e-09
  +2.40000000000e-09
  +3.80000000000e-09
  +5.20000000000e-09
  +6.10000000000e-08
  +6.11000000000e-08
  +6.20000000000e-08
  +6.25000000000e-08
</indep>
<dep clk.X dtime>
  1
  1
  1
  1
  1
  1
  1
  0
  0
  0
</dep>
<dep d.X dtime>
  0
  0
  0
  0
  0
  0
  1
  1
  1
  1
</dep>
<dep dn.X dtime>
  X
  1
  1
  1
  1
  1
  1
  1
  0
  0
</dep>
<dep q.X dtime>
  X
  X
  X
  X
  X
  0
  0
  0
  0
  0
</dep>
<dep qn.X dtime>
  X
  X
  X
  X
  1
  1
  1
  1
  1
  1
</dep>
<dep rs.X dtime>
  X
  X
  X
  0
  0
  0
  0
  0
  0
  1
</dep>
<dep ss.X dtime>
  X
  X
  1
  1
  1
  1
  1
  1
  1
  1
</dep>
